{
    "01 02 00 00 00 05 B8 09 "  :   "01 02 00 00 00 05 B8 09\n",
	" 01 11 "	:	"\n01 11 ",
	" 01 06 "	:	"\n01 06 ",
	" 01 10 "	:	"\n01 10 ",
	" 01 07 "	:	"\n01 07 ",
	" 01 04 "	:	"\n01 04 ",
	" 01 02 "	:	"\n01 02 ",
	" 77 41 "	:	"\n77 41 ",
	" 01 03 "	:	"\n01 03 ",
	"65 04 00 02 00 02 D8 2F 65 04 04 F5 C2 42 47 3C E0 "	:	"65 04 00 02 00 02 D8 2F \n65 04 04 F5 C2 42 47 3C E0",
	"66 04 00 02 00 02 D8 1C"	:	" ",
	"66 04 04 14 7A 42 48 F9 FD"	:	" ",
	"67 04 00 02 00 02 D9 CD "	:	" ",
	"67 04 04 D7 0A 42 47 94 A6 "	:	" ",
	"67 04 04 CC CD 42 47 23 BF "	:	" ",
	"65 04 00 02 00 02 D8 2F"	:	" ",
	"65 04 04 F5 C2 42 47 3C E0"	:	" ",
	"65 04 04 EB 86 42 47 7A DD "	:	" ",
	"\n\n"	:	" "
}

