{
    "01 02 00 00 00 05 B8 09 "  :   "01 02 00 00 00 05 B8 09\n",
    "01 02 01 00 A1 88 "    :   "01 02 01 00 A1 88\n",
    " 01 02 00 00 00 05 B8 09"    :   "\n01 02 00 00 00 05 B8 09",
    "01 04 00 00 00 05 30 09 "  :   "01 04 00 00 00 05 30 09\n", 
	"01 11 C0 2C "  :   "01 11 C0 2C\n", 
	" 01 11 C0 2C"  :   "\n01 11 C0 2C", 
	"02 11 C0 DC "  :   "02 11 C0 DC\n", 
	" 02 11 C0 DC"  :   "\n02 11 C0 DC",
	"04 11 C3 7C "  :   "02 11 C0 DC\n", 
	" 04 11 C3 7C"  :   "\n02 11 C0 DC",
	"01 07 41 E2 "	:	"01 07 41 E2\n",
	"01 06 01 5D FF FF 18 54 "	: "01 06 01 5D FF FF 18 54\n",
	"01 03 01 2B 00 02 B5 FF "	:	"01 03 01 2B 00 02 B5 FF\n",
	"01 03 04 00 01 00 04 AA 30 "	:	"01 03 04 00 01 00 04 AA 30\n",
	"01 03 01 2E 00 01 E5 FF "	:	"01 03 01 2E 00 01 E5 FF\n",
	"01 03 02 00 5A 38 7F "	:	"01 03 02 00 5A 38 7F\n",
	"01 0F 00 00 00 08 01 00 FE 95 "	:	"01 0F 00 00 00 08 01 00 FE 95\n",
	"01 0F 00 00 00 08 54 0D "	:	"01 0F 00 00 00 08 54 0D\n",
	"04 11 C3 7C  "	:	"04 11 C3 7C\n",
	"01 06 01 2D 00 02 99 FE  "	:	"01 06 01 2D 00 02 99 FE\n",
	"01 10 00 63 00 24 30 0C  "	:	"01 10 00 63 00 24 30 0C\n",
	" 01 06 01 2D 00 02 99 FE"	:	"\n01 06 01 2D 00 02 99 FE",
	" 01 10 00 63 00 24 48 00 00 00 00 00 00 00 00 00 00 00 00 00 00 00 00 00 00 00 00 00 00 00 00 00 00 00 00 00 00 00 00 00 00 00 00 00 00 00 00 00 00 00 00 00 00 00 00 00 00 00 00 00 00 00 00 00 00 00 00 00 00 00 00 00 00 00 00 00 00 00 00 17 74 "	:	"\n01 10 00 63 00 24 48 00 00 00 00 00 00 00 00 00 00 00 00 00 00 00 00 00 00 00 00 00 00 00 00 00 00 00 00 00 00 00 00 00 00 00 00 00 00 00 00 00 00 00 00 00 00 00 00 00 00 00 00 00 00 00 00 00 00 00 00 00 00 00 00 00 00 00 00 00 00 00 00 17 74 ",
	" 01 10 00 63 00 24 30 0C "	:	"\n01 10 00 63 00 24 30 0C ",
	" 01 06 01 35 00 00 98 38 "	:	"\n01 06 01 35 00 00 98 38 ",
	" 01 06 01 35 00 00 98 38"	:	"\n01 06 01 35 00 00 98 38",
	" 01 06 01 36 00 00 68 38 "	:	"\n01 06 01 36 00 00 68 38 ",
	" 01 06 01 36 00 00 68 38"	:	"\n01 06 01 36 00 00 68 38 ",
	" 01 06 01 3A 00 01 69 FB "	:	"\n01 06 01 3A 00 01 69 FB ",
	" 01 06 01 3A 00 01 69 FB "	:	"\n01 06 01 3A 00 01 69 FB ",
	"01 06 01 3A 00 01 69 FB "	:	"\n01 06 01 3A 00 01 69 FB ",
	" 01 06 01 3A 00 01 69 FB"	:	"\n01 06 01 3A 00 01 69 FB",
	" 01 07 41 E2"	:	"\n01 07 41 E2",
	" 01 86 03 02 61"	:	"\n01 86 03 02 61",
	" 01 03 01 2B 00 02 B5 FF "	:	"\n01 03 01 2B 00 02 B5 FF ",
	" 01 03 04 00 00 00 00 FA 33"	:	"\n01 03 04 00 00 00 00 FA 33",
	" 01 10 00 63 00 24 48 15 15 15 15 15 15 15 15 0C 0C 00 0C 00 00 00 00 00 00 00 00 00 00 00 00 00 00 00 00 00 00 00 00 00 00 00 00 00 00 00 00 00 00 00 00 00 00 00 00 00 00 00 00 00 01 00 00 00 00 00 00 00 00 00 00 00 00 00 00 00 00 00 00 82 AE"	:	"\n01 10 00 63 00 24 48 15 15 15 15 15 15 15 15 0C 0C 00 0C 00 00 00 00 00 00 00 00 00 00 00 00 00 00 00 00 00 00 00 00 00 00 00 00 00 00 00 00 00 00 00 00 00 00 00 00 00 00 00 00 00 01 00 00 00 00 00 00 00 00 00 00 00 00 00 00 00 00 00 00 82 AE",
	" 01 03 01 35 00 02 D5 F9"	:	"\n01 03 01 35 00 02 D5 F9",
	" 01 03 01 35 00 02 D5 F9 "	:	"\n01 03 01 35 00 02 D5 F9",
	" 01 03 01 3A 00 00 64 3B 01 83 03 01 31"	:	"\n01 03 01 3A 00 00 64 3B 01 83 03 01 31",
	" 01 10 00 63 00 24 30 0C 01 07 41 E2"	:	"\n01 10 00 63 00 24 30 0C 01 07 41 E2",
	" 01 03 04 00 03 00 00 0A 33"	:	"\n01 03 04 00 03 00 00 0A 33",
	" 01 03 01 2B 00 02 B5 FF"	:	"\n01 03 01 2B 00 02 B5 FF",
	" 01 03 01 2E 00 01 E5 FF"	:	"\n01 03 01 2E 00 01 E5 FF",
	" 01 06 01 5D FF FF 18 54"	:	"\n01 06 01 5D FF FF 18 54",
    "\n\n"         :   "\n",
    "\n \n"         :   "\n"
}

